T9E903780 000:000.487   SEGGER J-Link V7.92j Log File
T9E903780 000:000.584   DLL Compiled: Oct 12 2023 14:44:14
T9E903780 000:000.588   Logging started @ 2024-02-22 06:32
T9E903780 000:000.591   Process: /home/rahult/.eclipse/com.renesas.platform_1291152805/DebugComp/RA/e2-server-gdb
T9E903780 000:000.595 - 0.594ms
T9E903780 000:000.599 JLINK_GetDLLVersion()
T9E903780 000:000.603 - 0.003ms returns 79210
T9E903780 000:000.816 JLINK_OpenEx(...)
T9E903780 000:203.972   Firmware: J-Link OB-RA4M2 compiled Sep 13 2023 14:47:46
T9E903780 000:204.254   Firmware: J-Link OB-RA4M2 compiled Sep 13 2023 14:47:46
T9E903780 000:218.384   Hardware: V1.00
T9E903780 000:218.408   S/N: 1089120149
T9E903780 000:218.414   OEM: SEGGER
T9E903780 000:218.418   Feature(s): None
T9E903780 000:218.761   Bootloader: 2021 May 14
T9E903780 000:219.040   USB speed mode: Full speed (12 MBit/s)
T9E903780 000:219.392   TELNET listener socket opened on port 19021
T9E903780 000:219.448   WEBSRV WEBSRV_Init(): Starting webserver thread(s)
T9E903780 000:219.516   WEBSRV Webserver running on local port 19080
T9E903780 000:219.530   Looking for J-Link GUI Server exe at: ARM/Segger_v7.92.10/JLinkGUIServerExe
T9E903780 000:219.538   Looking for J-Link GUI Server exe at: /opt/SEGGER/JLink/JLinkGUIServerExe
T9E903780 000:219.547   Forking J-Link GUI Server: /opt/SEGGER/JLink/JLinkGUIServerExe
T9E903780 000:244.309   J-Link GUI Server info: "J-Link GUI server V7.92h "
T9E903780 000:244.620 - 243.797ms returns "O.K."
T9E903780 000:244.634 JLINK_TIF_Select(JLINKARM_TIF_SWD)
T9E903780 000:244.966 - 0.331ms returns 0x00
T9E903780 000:244.971 JLINK_ClrRESET()
T9E903780 000:245.128 - 0.157ms
T9E903780 000:295.215 JLINK_SetSpeed(1500)
T9E903780 000:295.420 - 0.206ms
T9E903780 000:295.435 JLINK_CORESIGHT_Configure(PerformTIFInit=0)
T9E903780 000:295.967 - 0.532ms returns 0
T9E903780 000:295.996 JLINK_CORESIGHT_ReadAPDPReg(DP reg 0x00)
T9E903780 000:296.583   Value=0x6BA02477
T9E903780 000:296.609 - 0.613ms returns 0
T9E903780 000:296.623 JLINK_CORESIGHT_WriteAPDPReg(DP reg 0x00, 0x0000001F)
T9E903780 000:296.899 - 0.277ms returns 0
T9E903780 000:296.909 JLINK_CORESIGHT_ReadAPDPReg(DP reg 0x00)
T9E903780 000:297.083   Value=0x6BA02477
T9E903780 000:297.094 - 0.184ms returns 0
T9E903780 000:297.103 JLINK_CORESIGHT_WriteAPDPReg(DP reg 0x02, 0x00000000)
T9E903780 000:297.318 - 0.215ms returns 0
T9E903780 000:297.348 JLINK_CORESIGHT_WriteAPDPReg(DP reg 0x01, 0x50000000)
T9E903780 000:297.578 - 0.230ms returns 0
T9E903780 000:297.628 JLINK_CORESIGHT_ReadAPDPReg(DP reg 0x01)
T9E903780 000:297.811   Value=0xF0000040
T9E903780 000:297.822 - 0.194ms returns 0
T9E903780 000:297.830 JLINK_CORESIGHT_WriteAPDPReg(DP reg 0x00, 0x0000001F)
T9E903780 000:298.007 - 0.176ms returns 0
T9E903780 000:298.015 JLINK_CORESIGHT_ReadAPDPReg(DP reg 0x00)
T9E903780 000:298.210   Value=0x6BA02477
T9E903780 000:298.223 - 0.209ms returns 0
T9E903780 000:298.231 JLINK_CORESIGHT_WriteAPDPReg(DP reg 0x01, 0x54000000)
T9E903780 000:298.476 - 0.244ms returns 0
T9E903780 000:298.484 JLINK_CORESIGHT_WriteAPDPReg(DP reg 0x01, 0x50000F00)
T9E903780 000:298.636 - 0.153ms returns 0
T9E903780 000:298.644 JLINK_CORESIGHT_WriteAPDPReg(DP reg 0x02, 0x01000000)
T9E903780 000:298.820 - 0.176ms returns 0
T9E903780 000:298.828 JLINK_CORESIGHT_WriteAPDPReg(AP reg 0x00, 0x80000002)
T9E903780 000:299.037 - 0.209ms returns 0
T9E903780 000:299.047 JLINK_CORESIGHT_WriteAPDPReg(AP reg 0x01, 0x80011100)
T9E903780 000:299.224 - 0.177ms returns 0
T9E903780 000:299.232 JLINK_CORESIGHT_WriteAPDPReg(AP reg 0x03, 0x000000A5)
T9E903780 000:299.476 - 0.244ms returns 0
T9E903780 000:299.484 JLINK_CORESIGHT_WriteAPDPReg(AP reg 0x00, 0x80000002)
T9E903780 000:299.654 - 0.170ms returns 0
T9E903780 000:299.657 JLINK_CORESIGHT_WriteAPDPReg(AP reg 0x01, 0x80011100)
T9E903780 000:299.826 - 0.169ms returns 0
T9E903780 000:299.830 JLINK_CORESIGHT_ReadAPDPReg(AP reg 0x03)
T9E903780 000:300.027   Value=0x000000A5
T9E903780 000:300.031 - 0.202ms returns 0
T9E903780 000:300.034 JLINK_ClrTMS()
T9E903780 000:300.076 - 0.042ms
T9E903780 000:305.160 JLINK_SetTCK()
T9E903780 000:305.232 - 0.073ms returns 0
T9E903780 000:310.320 JLINK_SetRESET()
T9E903780 000:310.555 - 0.236ms
T9E903780 000:510.776 JLINK_CORESIGHT_WriteAPDPReg(AP reg 0x00, 0x80000002)
T9E903780 000:511.272 - 0.497ms returns 0
T9E903780 000:511.302 JLINK_CORESIGHT_WriteAPDPReg(AP reg 0x01, 0x80011100)
T9E903780 000:511.769 - 0.467ms returns 0
T9E903780 000:511.797 JLINK_CORESIGHT_ReadAPDPReg(AP reg 0x03)
T9E903780 000:512.162   Value=0x00000000
T9E903780 000:512.194 - 0.397ms returns 0
T9E903780 000:512.210 JLINK_CORESIGHT_WriteAPDPReg(AP reg 0x00, 0x80000002)
T9E903780 000:512.554 - 0.343ms returns 0
T9E903780 000:512.584 JLINK_CORESIGHT_WriteAPDPReg(AP reg 0x01, 0x80011140)
T9E903780 000:512.784 - 0.200ms returns 0
T9E903780 000:512.796 JLINK_CORESIGHT_ReadAPDPReg(AP reg 0x03)
T9E903780 000:513.006   Value=0x00000002
T9E903780 000:513.017 - 0.221ms returns 0
T9E903780 000:513.027 JLINK_CORESIGHT_WriteAPDPReg(AP reg 0x00, 0x80000002)
T9E903780 000:513.207 - 0.181ms returns 0
T9E903780 000:513.219 JLINK_CORESIGHT_WriteAPDPReg(AP reg 0x01, 0x80011120)
T9E903780 000:513.374 - 0.156ms returns 0
T9E903780 000:513.383 JLINK_CORESIGHT_WriteAPDPReg(AP reg 0x03, 0x00000055)
T9E903780 000:513.573 - 0.191ms returns 0
T9E903780 000:513.582 JLINK_CORESIGHT_WriteAPDPReg(AP reg 0x00, 0x80000002)
T9E903780 000:513.759 - 0.177ms returns 0
T9E903780 000:513.768 JLINK_CORESIGHT_WriteAPDPReg(AP reg 0x01, 0x80011140)
T9E903780 000:513.922 - 0.155ms returns 0
T9E903780 000:513.930 JLINK_CORESIGHT_ReadAPDPReg(AP reg 0x03)
T9E903780 000:514.211   Value=0x00000000
T9E903780 000:514.225 - 0.295ms returns 0
T9E903780 000:514.234 JLINK_CORESIGHT_WriteAPDPReg(AP reg 0x00, 0x80000002)
T9E903780 000:514.473 - 0.239ms returns 0
T9E903780 000:514.482 JLINK_CORESIGHT_WriteAPDPReg(AP reg 0x01, 0x80011130)
T9E903780 000:514.660 - 0.178ms returns 0
T9E903780 000:514.668 JLINK_CORESIGHT_ReadAPDPReg(AP reg 0x03)
T9E903780 000:514.988   Value=0x000000C6
T9E903780 000:515.001 - 0.333ms returns 0
T9E903780 000:515.021 JLINK_CORESIGHT_WriteAPDPReg(AP reg 0x00, 0x80000002)
T9E903780 000:516.308 - 1.288ms returns 0
T9E903780 000:516.317 JLINK_CORESIGHT_WriteAPDPReg(AP reg 0x01, 0x80011140)
T9E903780 000:516.605 - 0.289ms returns 0
T9E903780 000:516.614 JLINK_CORESIGHT_ReadAPDPReg(AP reg 0x03)
T9E903780 000:516.834   Value=0x00000002
T9E903780 000:516.845 - 0.231ms returns 0
T9E903780 000:516.854 JLINK_CORESIGHT_WriteAPDPReg(AP reg 0x00, 0x80000002)
T9E903780 000:517.033 - 0.179ms returns 0
T9E903780 000:517.041 JLINK_CORESIGHT_WriteAPDPReg(AP reg 0x01, 0x80011120)
T9E903780 000:517.221 - 0.179ms returns 0
T9E903780 000:517.229 JLINK_CORESIGHT_WriteAPDPReg(AP reg 0x03, 0x3A010001)
T9E903780 000:517.383 - 0.153ms returns 0
T9E903780 000:517.391 JLINK_CORESIGHT_WriteAPDPReg(AP reg 0x00, 0x80000002)
T9E903780 000:517.574 - 0.182ms returns 0
T9E903780 000:517.582 JLINK_CORESIGHT_WriteAPDPReg(AP reg 0x01, 0x80011140)
T9E903780 000:517.761 - 0.180ms returns 0
T9E903780 000:517.770 JLINK_CORESIGHT_ReadAPDPReg(AP reg 0x03)
T9E903780 000:517.976   Value=0x00000002
T9E903780 000:517.987 - 0.217ms returns 0
T9E903780 000:517.996 JLINK_CORESIGHT_WriteAPDPReg(AP reg 0x00, 0x80000002)
T9E903780 000:518.137 - 0.142ms returns 0
T9E903780 000:518.140 JLINK_CORESIGHT_WriteAPDPReg(AP reg 0x01, 0x80011120)
T9E903780 000:518.308 - 0.168ms returns 0
T9E903780 000:518.311 JLINK_CORESIGHT_WriteAPDPReg(AP reg 0x03, 0x000003C5)
T9E903780 000:518.466 - 0.155ms returns 0
T9E903780 000:518.469 JLINK_CORESIGHT_WriteAPDPReg(AP reg 0x00, 0x80000002)
T9E903780 000:518.637 - 0.168ms returns 0
T9E903780 000:518.640 JLINK_CORESIGHT_WriteAPDPReg(AP reg 0x01, 0x80011140)
T9E903780 000:518.808 - 0.168ms returns 0
T9E903780 000:518.811 JLINK_CORESIGHT_ReadAPDPReg(AP reg 0x03)
T9E903780 000:519.019   Value=0x00000002
T9E903780 000:519.023 - 0.212ms returns 0
T9E903780 000:519.026 JLINK_CORESIGHT_ReadAPDPReg(AP reg 0x03)
T9E903780 000:519.223   Value=0x00000002
T9E903780 000:519.238 - 0.212ms returns 0
T9E903780 000:519.241 JLINK_CORESIGHT_ReadAPDPReg(AP reg 0x03)
T9E903780 000:519.466   Value=0x00000002
T9E903780 000:519.470 - 0.229ms returns 0
T9E903780 000:519.473 JLINK_CORESIGHT_ReadAPDPReg(AP reg 0x03)
T9E903780 000:519.670   Value=0x00000002
T9E903780 000:519.673 - 0.200ms returns 0
T9E903780 000:519.676 JLINK_CORESIGHT_ReadAPDPReg(AP reg 0x03)
T9E903780 000:519.871   Value=0x00000002
T9E903780 000:519.875 - 0.199ms returns 0
T9E903780 000:519.878 JLINK_CORESIGHT_ReadAPDPReg(AP reg 0x03)
T9E903780 000:520.074   Value=0x00000002
T9E903780 000:520.077 - 0.199ms returns 0
T9E903780 000:520.080 JLINK_CORESIGHT_ReadAPDPReg(AP reg 0x03)
T9E903780 000:520.281   Value=0x00000002
T9E903780 000:520.285 - 0.205ms returns 0
T9E903780 000:520.287 JLINK_CORESIGHT_ReadAPDPReg(AP reg 0x03)
T9E903780 000:520.506   Value=0x00000002
T9E903780 000:520.510 - 0.223ms returns 0
T9E903780 000:520.513 JLINK_CORESIGHT_ReadAPDPReg(AP reg 0x03)
T9E903780 000:520.711   Value=0x00000002
T9E903780 000:520.715 - 0.202ms returns 0
T9E903780 000:520.717 JLINK_CORESIGHT_ReadAPDPReg(AP reg 0x03)
T9E903780 000:520.911   Value=0x00000002
T9E903780 000:520.915 - 0.198ms returns 0
T9E903780 000:520.918 JLINK_CORESIGHT_ReadAPDPReg(AP reg 0x03)
T9E903780 000:521.115   Value=0x00000002
T9E903780 000:521.119 - 0.200ms returns 0
T9E903780 000:521.121 JLINK_CORESIGHT_ReadAPDPReg(AP reg 0x03)
T9E903780 000:521.318   Value=0x00000002
T9E903780 000:521.322 - 0.201ms returns 0
T9E903780 000:521.325 JLINK_CORESIGHT_ReadAPDPReg(AP reg 0x03)
T9E903780 000:521.528   Value=0x00000002
T9E903780 000:521.532 - 0.207ms returns 0
T9E903780 000:521.535 JLINK_CORESIGHT_ReadAPDPReg(AP reg 0x03)
T9E903780 000:521.732   Value=0x00000002
T9E903780 000:521.736 - 0.201ms returns 0
T9E903780 000:521.739 JLINK_CORESIGHT_ReadAPDPReg(AP reg 0x03)
T9E903780 000:521.936   Value=0x00000000
T9E903780 000:521.939 - 0.201ms returns 0
T9E903780 000:521.942 JLINK_CORESIGHT_WriteAPDPReg(AP reg 0x00, 0x80000002)
T9E903780 000:522.107 - 0.165ms returns 0
T9E903780 000:522.110 JLINK_CORESIGHT_WriteAPDPReg(AP reg 0x01, 0x80011130)
T9E903780 000:522.280 - 0.169ms returns 0
T9E903780 000:522.282 JLINK_CORESIGHT_ReadAPDPReg(AP reg 0x03)
T9E903780 000:522.498   Value=0x3A2A0081
T9E903780 000:522.501 - 0.219ms returns 0
T9E903780 000:522.504 JLINK_CORESIGHT_WriteAPDPReg(AP reg 0x00, 0x80000002)
T9E903780 000:522.669 - 0.165ms returns 0
T9E903780 000:522.672 JLINK_CORESIGHT_WriteAPDPReg(AP reg 0x01, 0x80011140)
T9E903780 000:522.842 - 0.170ms returns 0
T9E903780 000:522.845 JLINK_CORESIGHT_ReadAPDPReg(AP reg 0x03)
T9E903780 000:523.045   Value=0x00000000
T9E903780 000:523.049 - 0.204ms returns 0
T9E903780 000:523.052 JLINK_CORESIGHT_WriteAPDPReg(AP reg 0x00, 0x80000002)
T9E903780 000:523.217 - 0.165ms returns 0
T9E903780 000:523.220 JLINK_CORESIGHT_WriteAPDPReg(AP reg 0x01, 0x80011130)
T9E903780 000:523.466 - 0.246ms returns 0
T9E903780 000:523.469 JLINK_CORESIGHT_ReadAPDPReg(AP reg 0x03)
T9E903780 000:523.669   Value=0x808D5B00
T9E903780 000:523.673 - 0.204ms returns 0
T9E903780 000:523.676 JLINK_CORESIGHT_WriteAPDPReg(AP reg 0x00, 0x80000002)
T9E903780 000:523.842 - 0.165ms returns 0
T9E903780 000:523.844 JLINK_CORESIGHT_WriteAPDPReg(AP reg 0x01, 0x80011140)
T9E903780 000:524.013 - 0.169ms returns 0
T9E903780 000:524.016 JLINK_CORESIGHT_ReadAPDPReg(AP reg 0x03)
T9E903780 000:524.216   Value=0x00000000
T9E903780 000:524.220 - 0.204ms returns 0
T9E903780 000:524.225 JLINK_CORESIGHT_WriteAPDPReg(AP reg 0x00, 0x80000002)
T9E903780 000:524.466 - 0.241ms returns 0
T9E903780 000:524.470 JLINK_CORESIGHT_WriteAPDPReg(AP reg 0x01, 0x80011130)
T9E903780 000:524.638 - 0.169ms returns 0
T9E903780 000:524.641 JLINK_CORESIGHT_ReadAPDPReg(AP reg 0x03)
T9E903780 000:524.842   Value=0x0503030B
T9E903780 000:524.845 - 0.204ms returns 0
T9E903780 000:524.848 JLINK_CORESIGHT_WriteAPDPReg(AP reg 0x00, 0x80000002)
T9E903780 000:525.014 - 0.165ms returns 0
T9E903780 000:525.017 JLINK_CORESIGHT_WriteAPDPReg(AP reg 0x01, 0x80011140)
T9E903780 000:525.184 - 0.167ms returns 0
T9E903780 000:525.188 JLINK_CORESIGHT_ReadAPDPReg(AP reg 0x03)
T9E903780 000:525.475   Value=0x00000000
T9E903780 000:525.479 - 0.291ms returns 0
T9E903780 000:525.483 JLINK_CORESIGHT_WriteAPDPReg(AP reg 0x00, 0x80000002)
T9E903780 000:525.624 - 0.142ms returns 0
T9E903780 000:525.627 JLINK_CORESIGHT_WriteAPDPReg(AP reg 0x01, 0x80011130)
T9E903780 000:525.795 - 0.168ms returns 0
T9E903780 000:525.799 JLINK_CORESIGHT_ReadAPDPReg(AP reg 0x03)
T9E903780 000:525.998   Value=0x2E4B4E1C
T9E903780 000:526.002 - 0.203ms returns 0
T9E903780 000:526.006 JLINK_CORESIGHT_WriteAPDPReg(AP reg 0x00, 0x80000002)
T9E903780 000:526.171 - 0.166ms returns 0
T9E903780 000:526.174 JLINK_CORESIGHT_WriteAPDPReg(AP reg 0x01, 0x80011140)
T9E903780 000:526.343 - 0.169ms returns 0
T9E903780 000:526.347 JLINK_CORESIGHT_ReadAPDPReg(AP reg 0x03)
T9E903780 000:526.632   Value=0x00000000
T9E903780 000:526.636 - 0.289ms returns 0
T9E903780 000:526.661 JLINK_CORESIGHT_WriteAPDPReg(AP reg 0x00, 0x80000002)
T9E903780 000:526.832 - 0.171ms returns 0
T9E903780 000:526.835 JLINK_CORESIGHT_WriteAPDPReg(AP reg 0x01, 0x80011130)
T9E903780 000:527.004 - 0.169ms returns 0
T9E903780 000:527.008 JLINK_CORESIGHT_ReadAPDPReg(AP reg 0x03)
T9E903780 000:527.207   Value=0x4E97553E
T9E903780 000:527.211 - 0.203ms returns 0
T9E903780 000:527.214 JLINK_CORESIGHT_WriteAPDPReg(AP reg 0x00, 0x80000002)
T9E903780 000:527.378 - 0.164ms returns 0
T9E903780 000:527.382 JLINK_CORESIGHT_WriteAPDPReg(AP reg 0x01, 0x80011140)
T9E903780 000:527.566 - 0.185ms returns 0
T9E903780 000:527.569 JLINK_CORESIGHT_ReadAPDPReg(AP reg 0x03)
T9E903780 000:527.769   Value=0x00000000
T9E903780 000:527.773 - 0.203ms returns 0
T9E903780 000:527.776 JLINK_CORESIGHT_WriteAPDPReg(AP reg 0x00, 0x80000002)
T9E903780 000:527.941 - 0.165ms returns 0
T9E903780 000:527.944 JLINK_CORESIGHT_WriteAPDPReg(AP reg 0x01, 0x80011130)
T9E903780 000:528.113 - 0.169ms returns 0
T9E903780 000:528.116 JLINK_CORESIGHT_ReadAPDPReg(AP reg 0x03)
T9E903780 000:528.316   Value=0x34503036
T9E903780 000:528.320 - 0.203ms returns 0
T9E903780 000:528.323 JLINK_CORESIGHT_WriteAPDPReg(AP reg 0x00, 0x80000002)
T9E903780 000:528.466 - 0.143ms returns 0
T9E903780 000:528.470 JLINK_CORESIGHT_WriteAPDPReg(AP reg 0x01, 0x80011140)
T9E903780 000:528.638 - 0.168ms returns 0
T9E903780 000:528.642 JLINK_CORESIGHT_ReadAPDPReg(AP reg 0x03)
T9E903780 000:528.841   Value=0x00000000
T9E903780 000:528.845 - 0.203ms returns 0
T9E903780 000:528.848 JLINK_CORESIGHT_WriteAPDPReg(AP reg 0x00, 0x80000002)
T9E903780 000:529.014 - 0.166ms returns 0
T9E903780 000:529.018 JLINK_CORESIGHT_WriteAPDPReg(AP reg 0x01, 0x80011130)
T9E903780 000:529.191 - 0.172ms returns 0
T9E903780 000:529.204 JLINK_CORESIGHT_ReadAPDPReg(AP reg 0x03)
T9E903780 000:529.467   Value=0x7D012D35
T9E903780 000:529.471 - 0.267ms returns 0
T9E903780 000:529.475 JLINK_CORESIGHT_WriteAPDPReg(AP reg 0x00, 0x80000002)
T9E903780 000:529.640 - 0.164ms returns 0
T9E903780 000:529.643 JLINK_CORESIGHT_WriteAPDPReg(AP reg 0x01, 0x80011140)
T9E903780 000:529.811 - 0.168ms returns 0
T9E903780 000:529.815 JLINK_CORESIGHT_ReadAPDPReg(AP reg 0x03)
T9E903780 000:530.015   Value=0x00000000
T9E903780 000:530.019 - 0.204ms returns 0
T9E903780 000:530.023 JLINK_CORESIGHT_WriteAPDPReg(AP reg 0x00, 0x80000002)
T9E903780 000:530.186 - 0.163ms returns 0
T9E903780 000:530.190 JLINK_CORESIGHT_WriteAPDPReg(AP reg 0x01, 0x80011130)
T9E903780 000:530.358 - 0.168ms returns 0
T9E903780 000:530.361 JLINK_CORESIGHT_ReadAPDPReg(AP reg 0x03)
T9E903780 000:530.621   Value=0x4637528D
T9E903780 000:530.625 - 0.264ms returns 0
T9E903780 000:530.628 JLINK_CORESIGHT_WriteAPDPReg(AP reg 0x00, 0x80000002)
T9E903780 000:530.793 - 0.165ms returns 0
T9E903780 000:530.796 JLINK_CORESIGHT_WriteAPDPReg(AP reg 0x01, 0x80011140)
T9E903780 000:530.965 - 0.169ms returns 0
T9E903780 000:530.969 JLINK_CORESIGHT_ReadAPDPReg(AP reg 0x03)
T9E903780 000:531.168   Value=0x00000000
T9E903780 000:531.172 - 0.203ms returns 0
T9E903780 000:531.190 JLINK_CORESIGHT_WriteAPDPReg(AP reg 0x00, 0x80000002)
T9E903780 000:531.353 - 0.163ms returns 0
T9E903780 000:531.357 JLINK_CORESIGHT_WriteAPDPReg(AP reg 0x01, 0x80011130)
T9E903780 000:531.590 - 0.233ms returns 0
T9E903780 000:531.593 JLINK_CORESIGHT_ReadAPDPReg(AP reg 0x03)
T9E903780 000:531.793   Value=0x31443841
T9E903780 000:531.797 - 0.204ms returns 0
T9E903780 000:531.800 JLINK_CORESIGHT_WriteAPDPReg(AP reg 0x00, 0x80000002)
T9E903780 000:531.965 - 0.165ms returns 0
T9E903780 000:531.969 JLINK_CORESIGHT_WriteAPDPReg(AP reg 0x01, 0x80011140)
T9E903780 000:532.137 - 0.168ms returns 0
T9E903780 000:532.141 JLINK_CORESIGHT_ReadAPDPReg(AP reg 0x03)
T9E903780 000:532.335   Value=0x00000000
T9E903780 000:532.339 - 0.197ms returns 0
T9E903780 000:532.342 JLINK_CORESIGHT_WriteAPDPReg(AP reg 0x00, 0x80000002)
T9E903780 000:532.496 - 0.154ms returns 0
T9E903780 000:532.500 JLINK_CORESIGHT_WriteAPDPReg(AP reg 0x01, 0x80011130)
T9E903780 000:532.668 - 0.169ms returns 0
T9E903780 000:532.671 JLINK_CORESIGHT_ReadAPDPReg(AP reg 0x03)
T9E903780 000:532.871   Value=0x43454842
T9E903780 000:532.875 - 0.204ms returns 0
T9E903780 000:532.878 JLINK_CORESIGHT_WriteAPDPReg(AP reg 0x00, 0x80000002)
T9E903780 000:533.044 - 0.166ms returns 0
T9E903780 000:533.048 JLINK_CORESIGHT_WriteAPDPReg(AP reg 0x01, 0x80011140)
T9E903780 000:533.212 - 0.165ms returns 0
T9E903780 000:533.215 JLINK_CORESIGHT_ReadAPDPReg(AP reg 0x03)
T9E903780 000:533.459   Value=0x00000000
T9E903780 000:533.463 - 0.248ms returns 0
T9E903780 000:533.467 JLINK_CORESIGHT_WriteAPDPReg(AP reg 0x00, 0x80000002)
T9E903780 000:533.606 - 0.140ms returns 0
T9E903780 000:533.610 JLINK_CORESIGHT_WriteAPDPReg(AP reg 0x01, 0x80011130)
T9E903780 000:533.779 - 0.170ms returns 0
T9E903780 000:533.783 JLINK_CORESIGHT_ReadAPDPReg(AP reg 0x03)
T9E903780 000:533.981   Value=0x20204442
T9E903780 000:533.985 - 0.202ms returns 0
T9E903780 000:533.988 JLINK_CORESIGHT_WriteAPDPReg(AP reg 0x00, 0x80000002)
T9E903780 000:534.153 - 0.165ms returns 0
T9E903780 000:534.157 JLINK_CORESIGHT_WriteAPDPReg(AP reg 0x01, 0x80011140)
T9E903780 000:534.332 - 0.175ms returns 0
T9E903780 000:534.344 JLINK_CORESIGHT_ReadAPDPReg(AP reg 0x03)
T9E903780 000:534.622   Value=0x00000000
T9E903780 000:534.626 - 0.283ms returns 0
T9E903780 000:534.630 JLINK_CORESIGHT_WriteAPDPReg(AP reg 0x00, 0x80000002)
T9E903780 000:534.797 - 0.167ms returns 0
T9E903780 000:534.801 JLINK_CORESIGHT_WriteAPDPReg(AP reg 0x01, 0x80011130)
T9E903780 000:534.968 - 0.168ms returns 0
T9E903780 000:534.973 JLINK_CORESIGHT_ReadAPDPReg(AP reg 0x03)
T9E903780 000:535.172   Value=0x0003B720
T9E903780 000:535.175 - 0.203ms returns 0
T9E903780 000:535.234 JLINK_CORESIGHT_WriteAPDPReg(AP reg 0x00, 0x80000002)
T9E903780 000:535.374 - 0.139ms returns 0
T9E903780 000:535.377 JLINK_CORESIGHT_WriteAPDPReg(AP reg 0x01, 0x80011140)
T9E903780 000:535.566 - 0.190ms returns 0
T9E903780 000:535.569 JLINK_CORESIGHT_ReadAPDPReg(AP reg 0x03)
T9E903780 000:535.769   Value=0x00000002
T9E903780 000:535.773 - 0.203ms returns 0
T9E903780 000:535.776 JLINK_CORESIGHT_WriteAPDPReg(AP reg 0x00, 0x80000002)
T9E903780 000:535.940 - 0.165ms returns 0
T9E903780 000:535.942 JLINK_CORESIGHT_WriteAPDPReg(AP reg 0x01, 0x80011120)
T9E903780 000:536.113 - 0.171ms returns 0
T9E903780 000:536.116 JLINK_CORESIGHT_WriteAPDPReg(AP reg 0x03, 0x3A010001)
T9E903780 000:536.284 - 0.168ms returns 0
T9E903780 000:536.287 JLINK_CORESIGHT_WriteAPDPReg(AP reg 0x00, 0x80000002)
T9E903780 000:536.465 - 0.178ms returns 0
T9E903780 000:536.468 JLINK_CORESIGHT_WriteAPDPReg(AP reg 0x01, 0x80011140)
T9E903780 000:536.637 - 0.169ms returns 0
T9E903780 000:536.640 JLINK_CORESIGHT_ReadAPDPReg(AP reg 0x03)
T9E903780 000:536.840   Value=0x00000002
T9E903780 000:536.843 - 0.203ms returns 0
T9E903780 000:536.846 JLINK_CORESIGHT_WriteAPDPReg(AP reg 0x00, 0x80000002)
T9E903780 000:537.012 - 0.166ms returns 0
T9E903780 000:537.015 JLINK_CORESIGHT_WriteAPDPReg(AP reg 0x01, 0x80011120)
T9E903780 000:537.193 - 0.178ms returns 0
T9E903780 000:537.205 JLINK_CORESIGHT_WriteAPDPReg(AP reg 0x03, 0x000003C5)
T9E903780 000:537.370 - 0.165ms returns 0
T9E903780 000:537.373 JLINK_CORESIGHT_WriteAPDPReg(AP reg 0x00, 0x80000002)
T9E903780 000:537.566 - 0.193ms returns 0
T9E903780 000:537.569 JLINK_CORESIGHT_WriteAPDPReg(AP reg 0x01, 0x80011140)
T9E903780 000:537.738 - 0.169ms returns 0
T9E903780 000:537.741 JLINK_CORESIGHT_ReadAPDPReg(AP reg 0x03)
T9E903780 000:537.941   Value=0x00000002
T9E903780 000:537.945 - 0.204ms returns 0
T9E903780 000:537.948 JLINK_CORESIGHT_ReadAPDPReg(AP reg 0x03)
T9E903780 000:538.143   Value=0x00000002
T9E903780 000:538.147 - 0.199ms returns 0
T9E903780 000:538.149 JLINK_CORESIGHT_ReadAPDPReg(AP reg 0x03)
T9E903780 000:538.345   Value=0x00000002
T9E903780 000:538.349 - 0.200ms returns 0
T9E903780 000:538.352 JLINK_CORESIGHT_ReadAPDPReg(AP reg 0x03)
T9E903780 000:538.621   Value=0x00000002
T9E903780 000:538.625 - 0.274ms returns 0
T9E903780 000:538.628 JLINK_CORESIGHT_ReadAPDPReg(AP reg 0x03)
T9E903780 000:538.826   Value=0x00000002
T9E903780 000:538.830 - 0.202ms returns 0
T9E903780 000:538.833 JLINK_CORESIGHT_ReadAPDPReg(AP reg 0x03)
T9E903780 000:539.029   Value=0x00000002
T9E903780 000:539.033 - 0.200ms returns 0
T9E903780 000:539.036 JLINK_CORESIGHT_ReadAPDPReg(AP reg 0x03)
T9E903780 000:539.232   Value=0x00000002
T9E903780 000:539.236 - 0.199ms returns 0
T9E903780 000:539.238 JLINK_CORESIGHT_ReadAPDPReg(AP reg 0x03)
T9E903780 000:539.466   Value=0x00000002
T9E903780 000:539.470 - 0.232ms returns 0
T9E903780 000:539.473 JLINK_CORESIGHT_ReadAPDPReg(AP reg 0x03)
T9E903780 000:539.669   Value=0x00000002
T9E903780 000:539.672 - 0.200ms returns 0
T9E903780 000:539.675 JLINK_CORESIGHT_ReadAPDPReg(AP reg 0x03)
T9E903780 000:539.882   Value=0x00000002
T9E903780 000:539.886 - 0.211ms returns 0
T9E903780 000:539.888 JLINK_CORESIGHT_ReadAPDPReg(AP reg 0x03)
T9E903780 000:540.092   Value=0x00000002
T9E903780 000:540.095 - 0.207ms returns 0
T9E903780 000:540.098 JLINK_CORESIGHT_ReadAPDPReg(AP reg 0x03)
T9E903780 000:540.295   Value=0x00000002
T9E903780 000:540.299 - 0.200ms returns 0
T9E903780 000:540.301 JLINK_CORESIGHT_ReadAPDPReg(AP reg 0x03)
T9E903780 000:540.497   Value=0x00000002
T9E903780 000:540.500 - 0.199ms returns 0
T9E903780 000:540.503 JLINK_CORESIGHT_ReadAPDPReg(AP reg 0x03)
T9E903780 000:540.700   Value=0x00000002
T9E903780 000:540.704 - 0.201ms returns 0
T9E903780 000:540.707 JLINK_CORESIGHT_ReadAPDPReg(AP reg 0x03)
T9E903780 000:540.903   Value=0x00000000
T9E903780 000:540.907 - 0.200ms returns 0
T9E903780 000:540.910 JLINK_CORESIGHT_WriteAPDPReg(AP reg 0x00, 0x80000002)
T9E903780 000:541.076 - 0.166ms returns 0
T9E903780 000:541.079 JLINK_CORESIGHT_WriteAPDPReg(AP reg 0x01, 0x80011130)
T9E903780 000:541.248 - 0.170ms returns 0
T9E903780 000:541.251 JLINK_CORESIGHT_ReadAPDPReg(AP reg 0x03)
T9E903780 000:541.465   Value=0x3A2A0081
T9E903780 000:541.469 - 0.219ms returns 0
T9E903780 000:541.472 JLINK_CORESIGHT_WriteAPDPReg(AP reg 0x00, 0x80000002)
T9E903780 000:541.638 - 0.166ms returns 0
T9E903780 000:541.641 JLINK_CORESIGHT_WriteAPDPReg(AP reg 0x01, 0x80011140)
T9E903780 000:541.811 - 0.170ms returns 0
T9E903780 000:541.813 JLINK_CORESIGHT_ReadAPDPReg(AP reg 0x03)
T9E903780 000:542.013   Value=0x00000000
T9E903780 000:542.017 - 0.204ms returns 0
T9E903780 000:542.020 JLINK_CORESIGHT_WriteAPDPReg(AP reg 0x00, 0x80000002)
T9E903780 000:542.185 - 0.165ms returns 0
T9E903780 000:542.188 JLINK_CORESIGHT_WriteAPDPReg(AP reg 0x01, 0x80011130)
T9E903780 000:542.358 - 0.170ms returns 0
T9E903780 000:542.361 JLINK_CORESIGHT_ReadAPDPReg(AP reg 0x03)
T9E903780 000:542.622   Value=0x808D5B00
T9E903780 000:542.626 - 0.266ms returns 0
T9E903780 000:542.629 JLINK_CORESIGHT_WriteAPDPReg(AP reg 0x00, 0x80000002)
T9E903780 000:542.794 - 0.165ms returns 0
T9E903780 000:542.797 JLINK_CORESIGHT_WriteAPDPReg(AP reg 0x01, 0x80011140)
T9E903780 000:542.967 - 0.170ms returns 0
T9E903780 000:542.971 JLINK_CORESIGHT_ReadAPDPReg(AP reg 0x03)
T9E903780 000:543.170   Value=0x00000000
T9E903780 000:543.176 - 0.205ms returns 0
T9E903780 000:543.179 JLINK_CORESIGHT_WriteAPDPReg(AP reg 0x00, 0x80000002)
T9E903780 000:543.344 - 0.165ms returns 0
T9E903780 000:543.347 JLINK_CORESIGHT_WriteAPDPReg(AP reg 0x01, 0x80011130)
T9E903780 000:543.590 - 0.243ms returns 0
T9E903780 000:543.593 JLINK_CORESIGHT_ReadAPDPReg(AP reg 0x03)
T9E903780 000:543.794   Value=0x0503030B
T9E903780 000:543.798 - 0.205ms returns 0
T9E903780 000:543.801 JLINK_CORESIGHT_WriteAPDPReg(AP reg 0x00, 0x80000002)
T9E903780 000:543.966 - 0.165ms returns 0
T9E903780 000:543.969 JLINK_CORESIGHT_WriteAPDPReg(AP reg 0x01, 0x80011140)
T9E903780 000:544.138 - 0.169ms returns 0
T9E903780 000:544.141 JLINK_CORESIGHT_ReadAPDPReg(AP reg 0x03)
T9E903780 000:544.340   Value=0x00000000
T9E903780 000:544.344 - 0.203ms returns 0
T9E903780 000:544.347 JLINK_CORESIGHT_WriteAPDPReg(AP reg 0x00, 0x80000002)
T9E903780 000:544.591 - 0.244ms returns 0
T9E903780 000:544.595 JLINK_CORESIGHT_WriteAPDPReg(AP reg 0x01, 0x80011130)
T9E903780 000:544.764 - 0.170ms returns 0
T9E903780 000:544.767 JLINK_CORESIGHT_ReadAPDPReg(AP reg 0x03)
T9E903780 000:544.968   Value=0x2E4B4E1C
T9E903780 000:544.971 - 0.204ms returns 0
T9E903780 000:544.974 JLINK_CORESIGHT_WriteAPDPReg(AP reg 0x00, 0x80000002)
T9E903780 000:545.153 - 0.179ms returns 0
T9E903780 000:545.156 JLINK_CORESIGHT_WriteAPDPReg(AP reg 0x01, 0x80011140)
T9E903780 000:545.294 - 0.138ms returns 0
T9E903780 000:545.297 JLINK_CORESIGHT_ReadAPDPReg(AP reg 0x03)
T9E903780 000:545.497   Value=0x00000000
T9E903780 000:545.501 - 0.204ms returns 0
T9E903780 000:545.504 JLINK_CORESIGHT_WriteAPDPReg(AP reg 0x00, 0x80000002)
T9E903780 000:545.669 - 0.165ms returns 0
T9E903780 000:545.672 JLINK_CORESIGHT_WriteAPDPReg(AP reg 0x01, 0x80011130)
T9E903780 000:545.840 - 0.168ms returns 0
T9E903780 000:545.843 JLINK_CORESIGHT_ReadAPDPReg(AP reg 0x03)
T9E903780 000:546.044   Value=0x4E97553E
T9E903780 000:546.048 - 0.205ms returns 0
T9E903780 000:546.051 JLINK_CORESIGHT_WriteAPDPReg(AP reg 0x00, 0x80000002)
T9E903780 000:546.215 - 0.164ms returns 0
T9E903780 000:546.218 JLINK_CORESIGHT_WriteAPDPReg(AP reg 0x01, 0x80011140)
T9E903780 000:546.465 - 0.247ms returns 0
T9E903780 000:546.468 JLINK_CORESIGHT_ReadAPDPReg(AP reg 0x03)
T9E903780 000:546.669   Value=0x00000000
T9E903780 000:546.673 - 0.205ms returns 0
T9E903780 000:546.676 JLINK_CORESIGHT_WriteAPDPReg(AP reg 0x00, 0x80000002)
T9E903780 000:546.841 - 0.165ms returns 0
T9E903780 000:546.844 JLINK_CORESIGHT_WriteAPDPReg(AP reg 0x01, 0x80011130)
T9E903780 000:547.012 - 0.168ms returns 0
T9E903780 000:547.015 JLINK_CORESIGHT_ReadAPDPReg(AP reg 0x03)
T9E903780 000:547.215   Value=0x34503036
T9E903780 000:547.219 - 0.204ms returns 0
T9E903780 000:547.222 JLINK_CORESIGHT_WriteAPDPReg(AP reg 0x00, 0x80000002)
T9E903780 000:547.465 - 0.243ms returns 0
T9E903780 000:547.468 JLINK_CORESIGHT_WriteAPDPReg(AP reg 0x01, 0x80011140)
T9E903780 000:547.638 - 0.170ms returns 0
T9E903780 000:547.640 JLINK_CORESIGHT_ReadAPDPReg(AP reg 0x03)
T9E903780 000:547.840   Value=0x00000000
T9E903780 000:547.844 - 0.204ms returns 0
T9E903780 000:547.847 JLINK_CORESIGHT_WriteAPDPReg(AP reg 0x00, 0x80000002)
T9E903780 000:548.013 - 0.166ms returns 0
T9E903780 000:548.016 JLINK_CORESIGHT_WriteAPDPReg(AP reg 0x01, 0x80011130)
T9E903780 000:548.185 - 0.169ms returns 0
T9E903780 000:548.188 JLINK_CORESIGHT_ReadAPDPReg(AP reg 0x03)
T9E903780 000:548.465   Value=0x7D012D35
T9E903780 000:548.469 - 0.281ms returns 0
T9E903780 000:548.472 JLINK_CORESIGHT_WriteAPDPReg(AP reg 0x00, 0x80000002)
T9E903780 000:548.638 - 0.166ms returns 0
T9E903780 000:548.641 JLINK_CORESIGHT_WriteAPDPReg(AP reg 0x01, 0x80011140)
T9E903780 000:548.809 - 0.169ms returns 0
T9E903780 000:548.812 JLINK_CORESIGHT_ReadAPDPReg(AP reg 0x03)
T9E903780 000:549.014   Value=0x00000000
T9E903780 000:549.017 - 0.205ms returns 0
T9E903780 000:549.020 JLINK_CORESIGHT_WriteAPDPReg(AP reg 0x00, 0x80000002)
T9E903780 000:549.186 - 0.166ms returns 0
T9E903780 000:549.188 JLINK_CORESIGHT_WriteAPDPReg(AP reg 0x01, 0x80011130)
T9E903780 000:549.357 - 0.169ms returns 0
T9E903780 000:549.360 JLINK_CORESIGHT_ReadAPDPReg(AP reg 0x03)
T9E903780 000:549.622   Value=0x4637528D
T9E903780 000:549.626 - 0.266ms returns 0
T9E903780 000:549.629 JLINK_CORESIGHT_WriteAPDPReg(AP reg 0x00, 0x80000002)
T9E903780 000:549.794 - 0.165ms returns 0
T9E903780 000:549.796 JLINK_CORESIGHT_WriteAPDPReg(AP reg 0x01, 0x80011140)
T9E903780 000:549.932 - 0.136ms returns 0
T9E903780 000:549.935 JLINK_CORESIGHT_ReadAPDPReg(AP reg 0x03)
T9E903780 000:550.135   Value=0x00000000
T9E903780 000:550.138 - 0.203ms returns 0
T9E903780 000:550.141 JLINK_CORESIGHT_WriteAPDPReg(AP reg 0x00, 0x80000002)
T9E903780 000:550.306 - 0.165ms returns 0
T9E903780 000:550.309 JLINK_CORESIGHT_WriteAPDPReg(AP reg 0x01, 0x80011130)
T9E903780 000:550.459 - 0.149ms returns 0
T9E903780 000:550.461 JLINK_CORESIGHT_ReadAPDPReg(AP reg 0x03)
T9E903780 000:550.658   Value=0x31443841
T9E903780 000:550.661 - 0.200ms returns 0
T9E903780 000:550.664 JLINK_CORESIGHT_WriteAPDPReg(AP reg 0x00, 0x80000002)
T9E903780 000:550.832 - 0.168ms returns 0
T9E903780 000:550.835 JLINK_CORESIGHT_WriteAPDPReg(AP reg 0x01, 0x80011140)
T9E903780 000:551.004 - 0.169ms returns 0
T9E903780 000:551.008 JLINK_CORESIGHT_ReadAPDPReg(AP reg 0x03)
T9E903780 000:551.218   Value=0x00000000
T9E903780 000:551.222 - 0.214ms returns 0
T9E903780 000:551.224 JLINK_CORESIGHT_WriteAPDPReg(AP reg 0x00, 0x80000002)
T9E903780 000:551.466 - 0.242ms returns 0
T9E903780 000:551.468 JLINK_CORESIGHT_WriteAPDPReg(AP reg 0x01, 0x80011130)
T9E903780 000:551.637 - 0.169ms returns 0
T9E903780 000:551.639 JLINK_CORESIGHT_ReadAPDPReg(AP reg 0x03)
T9E903780 000:551.836   Value=0x43454842
T9E903780 000:551.840 - 0.201ms returns 0
T9E903780 000:551.842 JLINK_CORESIGHT_WriteAPDPReg(AP reg 0x00, 0x80000002)
T9E903780 000:552.008 - 0.166ms returns 0
T9E903780 000:552.011 JLINK_CORESIGHT_WriteAPDPReg(AP reg 0x01, 0x80011140)
T9E903780 000:552.171 - 0.160ms returns 0
T9E903780 000:552.174 JLINK_CORESIGHT_ReadAPDPReg(AP reg 0x03)
T9E903780 000:552.365   Value=0x00000000
T9E903780 000:552.368 - 0.194ms returns 0
T9E903780 000:552.371 JLINK_CORESIGHT_WriteAPDPReg(AP reg 0x00, 0x80000002)
T9E903780 000:552.566 - 0.195ms returns 0
T9E903780 000:552.568 JLINK_CORESIGHT_WriteAPDPReg(AP reg 0x01, 0x80011130)
T9E903780 000:552.729 - 0.161ms returns 0
T9E903780 000:552.731 JLINK_CORESIGHT_ReadAPDPReg(AP reg 0x03)
T9E903780 000:552.931   Value=0x20204442
T9E903780 000:552.934 - 0.203ms returns 0
T9E903780 000:552.937 JLINK_CORESIGHT_WriteAPDPReg(AP reg 0x00, 0x80000002)
T9E903780 000:553.104 - 0.168ms returns 0
T9E903780 000:553.106 JLINK_CORESIGHT_WriteAPDPReg(AP reg 0x01, 0x80011140)
T9E903780 000:553.275 - 0.169ms returns 0
T9E903780 000:553.278 JLINK_CORESIGHT_ReadAPDPReg(AP reg 0x03)
T9E903780 000:553.496   Value=0x00000000
T9E903780 000:553.500 - 0.223ms returns 0
T9E903780 000:553.503 JLINK_CORESIGHT_WriteAPDPReg(AP reg 0x00, 0x80000002)
T9E903780 000:553.669 - 0.166ms returns 0
T9E903780 000:553.672 JLINK_CORESIGHT_WriteAPDPReg(AP reg 0x01, 0x80011130)
T9E903780 000:553.854 - 0.182ms returns 0
T9E903780 000:553.857 JLINK_CORESIGHT_ReadAPDPReg(AP reg 0x03)
T9E903780 000:554.056   Value=0x0003B720
T9E903780 000:554.060 - 0.203ms returns 0
T9E903780 000:554.071 JLINK_CORESIGHT_WriteAPDPReg(AP reg 0x00, 0x80000002)
T9E903780 000:554.208 - 0.136ms returns 0
T9E903780 000:554.210 JLINK_CORESIGHT_WriteAPDPReg(AP reg 0x01, 0x80011140)
T9E903780 000:554.380 - 0.170ms returns 0
T9E903780 000:554.383 JLINK_CORESIGHT_ReadAPDPReg(AP reg 0x03)
T9E903780 000:554.628   Value=0x00000002
T9E903780 000:554.632 - 0.249ms returns 0
T9E903780 000:554.635 JLINK_CORESIGHT_WriteAPDPReg(AP reg 0x00, 0x80000002)
T9E903780 000:554.800 - 0.166ms returns 0
T9E903780 000:554.803 JLINK_CORESIGHT_WriteAPDPReg(AP reg 0x01, 0x80011120)
T9E903780 000:554.972 - 0.170ms returns 0
T9E903780 000:554.975 JLINK_CORESIGHT_WriteAPDPReg(AP reg 0x03, 0x2C010001)
T9E903780 000:555.144 - 0.169ms returns 0
T9E903780 000:555.150 JLINK_CORESIGHT_WriteAPDPReg(AP reg 0x00, 0x80000002)
T9E903780 000:555.315 - 0.165ms returns 0
T9E903780 000:555.318 JLINK_CORESIGHT_WriteAPDPReg(AP reg 0x01, 0x80011140)
T9E903780 000:555.465 - 0.147ms returns 0
T9E903780 000:555.468 JLINK_CORESIGHT_ReadAPDPReg(AP reg 0x03)
T9E903780 000:555.663   Value=0x00000002
T9E903780 000:555.666 - 0.198ms returns 0
T9E903780 000:555.669 JLINK_CORESIGHT_WriteAPDPReg(AP reg 0x00, 0x80000002)
T9E903780 000:555.835 - 0.166ms returns 0
T9E903780 000:555.837 JLINK_CORESIGHT_WriteAPDPReg(AP reg 0x01, 0x80011120)
T9E903780 000:555.997 - 0.160ms returns 0
T9E903780 000:556.000 JLINK_CORESIGHT_WriteAPDPReg(AP reg 0x03, 0x000003D3)
T9E903780 000:556.170 - 0.170ms returns 0
T9E903780 000:556.172 JLINK_CORESIGHT_WriteAPDPReg(AP reg 0x00, 0x80000002)
T9E903780 000:556.342 - 0.170ms returns 0
T9E903780 000:556.344 JLINK_CORESIGHT_WriteAPDPReg(AP reg 0x01, 0x80011140)
T9E903780 000:556.591 - 0.247ms returns 0
T9E903780 000:556.593 JLINK_CORESIGHT_ReadAPDPReg(AP reg 0x03)
T9E903780 000:556.794   Value=0x00000002
T9E903780 000:556.797 - 0.204ms returns 0
T9E903780 000:556.800 JLINK_CORESIGHT_ReadAPDPReg(AP reg 0x03)
T9E903780 000:556.996   Value=0x00000002
T9E903780 000:556.999 - 0.199ms returns 0
T9E903780 000:557.002 JLINK_CORESIGHT_ReadAPDPReg(AP reg 0x03)
T9E903780 000:557.205   Value=0x00000002
T9E903780 000:557.208 - 0.206ms returns 0
T9E903780 000:557.211 JLINK_CORESIGHT_ReadAPDPReg(AP reg 0x03)
T9E903780 000:557.466   Value=0x00000002
T9E903780 000:557.472 - 0.261ms returns 0
T9E903780 000:557.475 JLINK_CORESIGHT_ReadAPDPReg(AP reg 0x03)
T9E903780 000:557.792   Value=0x00000002
T9E903780 000:557.804 - 0.329ms returns 0
T9E903780 000:557.807 JLINK_CORESIGHT_ReadAPDPReg(AP reg 0x03)
T9E903780 000:558.000   Value=0x00000002
T9E903780 000:558.004 - 0.198ms returns 0
T9E903780 000:558.007 JLINK_CORESIGHT_ReadAPDPReg(AP reg 0x03)
T9E903780 000:558.206   Value=0x00000002
T9E903780 000:558.210 - 0.203ms returns 0
T9E903780 000:558.212 JLINK_CORESIGHT_ReadAPDPReg(AP reg 0x03)
T9E903780 000:558.464   Value=0x00000002
T9E903780 000:558.468 - 0.256ms returns 0
T9E903780 000:558.470 JLINK_CORESIGHT_ReadAPDPReg(AP reg 0x03)
T9E903780 000:558.667   Value=0x00000002
T9E903780 000:558.671 - 0.201ms returns 0
T9E903780 000:558.674 JLINK_CORESIGHT_ReadAPDPReg(AP reg 0x03)
T9E903780 000:558.876   Value=0x00000000
T9E903780 000:558.882 - 0.208ms returns 0
T9E903780 000:558.884 JLINK_CORESIGHT_WriteAPDPReg(AP reg 0x00, 0x80000002)
T9E903780 000:559.020 - 0.136ms returns 0
T9E903780 000:559.023 JLINK_CORESIGHT_WriteAPDPReg(AP reg 0x01, 0x80011130)
T9E903780 000:559.192 - 0.169ms returns 0
T9E903780 000:559.195 JLINK_CORESIGHT_ReadAPDPReg(AP reg 0x03)
T9E903780 000:559.464   Value=0x2C020081
T9E903780 000:559.468 - 0.274ms returns 0
T9E903780 000:559.471 JLINK_CORESIGHT_WriteAPDPReg(AP reg 0x00, 0x80000002)
T9E903780 000:559.637 - 0.166ms returns 0
T9E903780 000:559.641 JLINK_CORESIGHT_WriteAPDPReg(AP reg 0x01, 0x80011140)
T9E903780 000:559.809 - 0.168ms returns 0
T9E903780 000:559.812 JLINK_CORESIGHT_ReadAPDPReg(AP reg 0x03)
T9E903780 000:560.011   Value=0x00000000
T9E903780 000:560.015 - 0.203ms returns 0
T9E903780 000:560.018 JLINK_CORESIGHT_WriteAPDPReg(AP reg 0x00, 0x80000002)
T9E903780 000:560.182 - 0.164ms returns 0
T9E903780 000:560.185 JLINK_CORESIGHT_WriteAPDPReg(AP reg 0x01, 0x80011130)
T9E903780 000:560.464 - 0.279ms returns 0
T9E903780 000:560.468 JLINK_CORESIGHT_ReadAPDPReg(AP reg 0x03)
T9E903780 000:560.667   Value=0x0003CE04
T9E903780 000:560.671 - 0.202ms returns 0
T9E903780 000:560.686 JLINK_CORESIGHT_WriteAPDPReg(AP reg 0x00, 0x80000002)
T9E903780 000:560.899 - 0.213ms returns 0
T9E903780 000:560.902 JLINK_CORESIGHT_WriteAPDPReg(AP reg 0x01, 0x80011140)
T9E903780 000:561.036 - 0.134ms returns 0
T9E903780 000:561.039 JLINK_CORESIGHT_ReadAPDPReg(AP reg 0x03)
T9E903780 000:561.230   Value=0x00000002
T9E903780 000:561.234 - 0.195ms returns 0
T9E903780 000:561.237 JLINK_CORESIGHT_WriteAPDPReg(AP reg 0x00, 0x80000002)
T9E903780 000:561.465 - 0.228ms returns 0
T9E903780 000:561.468 JLINK_CORESIGHT_WriteAPDPReg(AP reg 0x01, 0x80011120)
T9E903780 000:561.637 - 0.169ms returns 0
T9E903780 000:561.640 JLINK_CORESIGHT_WriteAPDPReg(AP reg 0x03, 0x73010001)
T9E903780 000:561.808 - 0.167ms returns 0
T9E903780 000:561.811 JLINK_CORESIGHT_WriteAPDPReg(AP reg 0x00, 0x80000002)
T9E903780 000:561.980 - 0.169ms returns 0
T9E903780 000:561.984 JLINK_CORESIGHT_WriteAPDPReg(AP reg 0x01, 0x80011140)
T9E903780 000:562.117 - 0.134ms returns 0
T9E903780 000:562.120 JLINK_CORESIGHT_ReadAPDPReg(AP reg 0x03)
T9E903780 000:562.320   Value=0x00000002
T9E903780 000:562.324 - 0.204ms returns 0
T9E903780 000:562.327 JLINK_CORESIGHT_WriteAPDPReg(AP reg 0x00, 0x80000002)
T9E903780 000:562.495 - 0.168ms returns 0
T9E903780 000:562.499 JLINK_CORESIGHT_WriteAPDPReg(AP reg 0x01, 0x80011120)
T9E903780 000:562.669 - 0.171ms returns 0
T9E903780 000:562.672 JLINK_CORESIGHT_WriteAPDPReg(AP reg 0x03, 0x0000038C)
T9E903780 000:562.856 - 0.184ms returns 0
T9E903780 000:562.859 JLINK_CORESIGHT_WriteAPDPReg(AP reg 0x00, 0x80000002)
T9E903780 000:563.028 - 0.169ms returns 0
T9E903780 000:563.031 JLINK_CORESIGHT_WriteAPDPReg(AP reg 0x01, 0x80011140)
T9E903780 000:563.201 - 0.170ms returns 0
T9E903780 000:563.204 JLINK_CORESIGHT_ReadAPDPReg(AP reg 0x03)
T9E903780 000:563.465   Value=0x00000000
T9E903780 000:563.469 - 0.265ms returns 0
T9E903780 000:563.472 JLINK_CORESIGHT_WriteAPDPReg(AP reg 0x00, 0x80000002)
T9E903780 000:563.636 - 0.165ms returns 0
T9E903780 000:563.639 JLINK_CORESIGHT_WriteAPDPReg(AP reg 0x01, 0x80011130)
T9E903780 000:563.808 - 0.168ms returns 0
T9E903780 000:563.811 JLINK_CORESIGHT_ReadAPDPReg(AP reg 0x03)
T9E903780 000:564.008   Value=0x73020081
T9E903780 000:564.012 - 0.201ms returns 0
T9E903780 000:564.015 JLINK_CORESIGHT_WriteAPDPReg(AP reg 0x00, 0x80000002)
T9E903780 000:564.179 - 0.164ms returns 0
T9E903780 000:564.181 JLINK_CORESIGHT_WriteAPDPReg(AP reg 0x01, 0x80011140)
T9E903780 000:564.317 - 0.136ms returns 0
T9E903780 000:564.320 JLINK_CORESIGHT_ReadAPDPReg(AP reg 0x03)
T9E903780 000:564.526   Value=0x00000000
T9E903780 000:564.530 - 0.210ms returns 0
T9E903780 000:564.533 JLINK_CORESIGHT_WriteAPDPReg(AP reg 0x00, 0x80000002)
T9E903780 000:564.700 - 0.167ms returns 0
T9E903780 000:564.703 JLINK_CORESIGHT_WriteAPDPReg(AP reg 0x01, 0x80011130)
T9E903780 000:564.871 - 0.168ms returns 0
T9E903780 000:564.874 JLINK_CORESIGHT_ReadAPDPReg(AP reg 0x03)
T9E903780 000:565.071   Value=0x00038902
T9E903780 000:565.075 - 0.202ms returns 0
T9E903780 000:565.079 JLINK_CORESIGHT_WriteAPDPReg(AP reg 0x00, 0x80000002)
T9E903780 000:565.242 - 0.163ms returns 0
T9E903780 000:565.245 JLINK_CORESIGHT_WriteAPDPReg(AP reg 0x01, 0x80011140)
T9E903780 000:565.458 - 0.213ms returns 0
T9E903780 000:565.461 JLINK_CORESIGHT_ReadAPDPReg(AP reg 0x03)
T9E903780 000:565.668   Value=0x00000002
T9E903780 000:565.671 - 0.210ms returns 0
T9E903780 000:565.674 JLINK_CORESIGHT_WriteAPDPReg(AP reg 0x00, 0x80000002)
T9E903780 000:565.840 - 0.165ms returns 0
T9E903780 000:565.842 JLINK_CORESIGHT_WriteAPDPReg(AP reg 0x01, 0x80011120)
T9E903780 000:566.002 - 0.160ms returns 0
T9E903780 000:566.005 JLINK_CORESIGHT_WriteAPDPReg(AP reg 0x03, 0x75010001)
T9E903780 000:566.174 - 0.169ms returns 0
T9E903780 000:566.177 JLINK_CORESIGHT_WriteAPDPReg(AP reg 0x00, 0x80000002)
T9E903780 000:566.337 - 0.160ms returns 0
T9E903780 000:566.340 JLINK_CORESIGHT_WriteAPDPReg(AP reg 0x01, 0x80011140)
T9E903780 000:566.495 - 0.155ms returns 0
T9E903780 000:566.498 JLINK_CORESIGHT_ReadAPDPReg(AP reg 0x03)
T9E903780 000:566.701   Value=0x00000002
T9E903780 000:566.705 - 0.206ms returns 0
T9E903780 000:566.707 JLINK_CORESIGHT_WriteAPDPReg(AP reg 0x00, 0x80000002)
T9E903780 000:566.875 - 0.168ms returns 0
T9E903780 000:566.879 JLINK_CORESIGHT_WriteAPDPReg(AP reg 0x01, 0x80011120)
T9E903780 000:567.044 - 0.165ms returns 0
T9E903780 000:567.048 JLINK_CORESIGHT_WriteAPDPReg(AP reg 0x03, 0x0000038A)
T9E903780 000:567.217 - 0.169ms returns 0
T9E903780 000:567.223 JLINK_CORESIGHT_WriteAPDPReg(AP reg 0x00, 0x80000002)
T9E903780 000:567.464 - 0.241ms returns 0
T9E903780 000:567.468 JLINK_CORESIGHT_WriteAPDPReg(AP reg 0x01, 0x80011140)
T9E903780 000:567.637 - 0.170ms returns 0
T9E903780 000:567.640 JLINK_CORESIGHT_ReadAPDPReg(AP reg 0x03)
T9E903780 000:567.838   Value=0x00000002
T9E903780 000:567.842 - 0.202ms returns 0
T9E903780 000:567.845 JLINK_CORESIGHT_ReadAPDPReg(AP reg 0x03)
T9E903780 000:568.044   Value=0x00000002
T9E903780 000:568.050 - 0.205ms returns 0
T9E903780 000:568.054 JLINK_CORESIGHT_ReadAPDPReg(AP reg 0x03)
T9E903780 000:568.466   Value=0x00000002
T9E903780 000:568.474 - 0.420ms returns 0
T9E903780 000:568.477 JLINK_CORESIGHT_ReadAPDPReg(AP reg 0x03)
T9E903780 000:568.678   Value=0x00000000
T9E903780 000:568.684 - 0.207ms returns 0
T9E903780 000:568.688 JLINK_CORESIGHT_WriteAPDPReg(AP reg 0x00, 0x80000002)
T9E903780 000:568.860 - 0.173ms returns 0
T9E903780 000:568.866 JLINK_CORESIGHT_WriteAPDPReg(AP reg 0x01, 0x80011130)
T9E903780 000:569.005 - 0.139ms returns 0
T9E903780 000:569.011 JLINK_CORESIGHT_ReadAPDPReg(AP reg 0x03)
T9E903780 000:569.207   Value=0x75020081
T9E903780 000:569.211 - 0.200ms returns 0
T9E903780 000:569.214 JLINK_CORESIGHT_WriteAPDPReg(AP reg 0x00, 0x80000002)
T9E903780 000:569.379 - 0.165ms returns 0
T9E903780 000:569.382 JLINK_CORESIGHT_WriteAPDPReg(AP reg 0x01, 0x80011140)
T9E903780 000:569.566 - 0.184ms returns 0
T9E903780 000:569.573 JLINK_CORESIGHT_ReadAPDPReg(AP reg 0x03)
T9E903780 000:569.770   Value=0x00000000
T9E903780 000:569.778 - 0.205ms returns 0
T9E903780 000:569.782 JLINK_CORESIGHT_WriteAPDPReg(AP reg 0x00, 0x80000002)
T9E903780 000:569.924 - 0.141ms returns 0
T9E903780 000:569.937 JLINK_CORESIGHT_WriteAPDPReg(AP reg 0x01, 0x80011130)
T9E903780 000:570.105 - 0.169ms returns 0
T9E903780 000:570.110 JLINK_CORESIGHT_ReadAPDPReg(AP reg 0x03)
T9E903780 000:570.305   Value=0x00038702
T9E903780 000:570.309 - 0.200ms returns 0
T9E903780 000:570.318 JLINK_CORESIGHT_WriteAPDPReg(AP reg 0x00, 0x80000002)
T9E903780 000:570.459 - 0.140ms returns 0
T9E903780 000:570.462 JLINK_CORESIGHT_WriteAPDPReg(AP reg 0x01, 0x80011140)
T9E903780 000:570.629 - 0.168ms returns 0
T9E903780 000:570.632 JLINK_CORESIGHT_ReadAPDPReg(AP reg 0x03)
T9E903780 000:570.832   Value=0x00000002
T9E903780 000:570.835 - 0.203ms returns 0
T9E903780 000:570.839 JLINK_CORESIGHT_WriteAPDPReg(AP reg 0x00, 0x80000002)
T9E903780 000:571.005 - 0.167ms returns 0
T9E903780 000:571.009 JLINK_CORESIGHT_WriteAPDPReg(AP reg 0x01, 0x80011120)
T9E903780 000:571.175 - 0.166ms returns 0
T9E903780 000:571.178 JLINK_CORESIGHT_WriteAPDPReg(AP reg 0x03, 0x4F010001)
T9E903780 000:571.347 - 0.169ms returns 0
T9E903780 000:571.350 JLINK_CORESIGHT_WriteAPDPReg(AP reg 0x00, 0x80000002)
T9E903780 000:571.591 - 0.241ms returns 0
T9E903780 000:571.594 JLINK_CORESIGHT_WriteAPDPReg(AP reg 0x01, 0x80011140)
T9E903780 000:571.763 - 0.169ms returns 0
T9E903780 000:571.765 JLINK_CORESIGHT_ReadAPDPReg(AP reg 0x03)
T9E903780 000:571.965   Value=0x00000002
T9E903780 000:571.969 - 0.204ms returns 0
T9E903780 000:571.972 JLINK_CORESIGHT_WriteAPDPReg(AP reg 0x00, 0x80000002)
T9E903780 000:572.137 - 0.165ms returns 0
T9E903780 000:572.140 JLINK_CORESIGHT_WriteAPDPReg(AP reg 0x01, 0x80011120)
T9E903780 000:572.308 - 0.168ms returns 0
T9E903780 000:572.311 JLINK_CORESIGHT_WriteAPDPReg(AP reg 0x03, 0x000003B0)
T9E903780 000:572.465 - 0.154ms returns 0
T9E903780 000:572.468 JLINK_CORESIGHT_WriteAPDPReg(AP reg 0x00, 0x80000002)
T9E903780 000:572.637 - 0.169ms returns 0
T9E903780 000:572.640 JLINK_CORESIGHT_WriteAPDPReg(AP reg 0x01, 0x80011140)
T9E903780 000:572.808 - 0.168ms returns 0
T9E903780 000:572.811 JLINK_CORESIGHT_ReadAPDPReg(AP reg 0x03)
T9E903780 000:573.012   Value=0x00000002
T9E903780 000:573.016 - 0.205ms returns 0
T9E903780 000:573.018 JLINK_CORESIGHT_ReadAPDPReg(AP reg 0x03)
T9E903780 000:573.224   Value=0x00000002
T9E903780 000:573.228 - 0.210ms returns 0
T9E903780 000:573.231 JLINK_CORESIGHT_ReadAPDPReg(AP reg 0x03)
T9E903780 000:573.465   Value=0x00000002
T9E903780 000:573.469 - 0.238ms returns 0
T9E903780 000:573.472 JLINK_CORESIGHT_ReadAPDPReg(AP reg 0x03)
T9E903780 000:573.668   Value=0x00000002
T9E903780 000:573.672 - 0.200ms returns 0
T9E903780 000:573.675 JLINK_CORESIGHT_ReadAPDPReg(AP reg 0x03)
T9E903780 000:573.870   Value=0x00000002
T9E903780 000:573.874 - 0.199ms returns 0
T9E903780 000:573.877 JLINK_CORESIGHT_ReadAPDPReg(AP reg 0x03)
T9E903780 000:574.072   Value=0x00000002
T9E903780 000:574.076 - 0.199ms returns 0
T9E903780 000:574.079 JLINK_CORESIGHT_ReadAPDPReg(AP reg 0x03)
T9E903780 000:574.277   Value=0x00000002
T9E903780 000:574.281 - 0.203ms returns 0
T9E903780 000:574.284 JLINK_CORESIGHT_ReadAPDPReg(AP reg 0x03)
T9E903780 000:574.467   Value=0x00000002
T9E903780 000:574.474 - 0.190ms returns 0
T9E903780 000:574.478 JLINK_CORESIGHT_ReadAPDPReg(AP reg 0x03)
T9E903780 000:574.692   Value=0x00000002
T9E903780 000:574.698 - 0.220ms returns 0
T9E903780 000:574.703 JLINK_CORESIGHT_ReadAPDPReg(AP reg 0x03)
T9E903780 000:574.899   Value=0x00000002
T9E903780 000:574.904 - 0.202ms returns 0
T9E903780 000:574.907 JLINK_CORESIGHT_ReadAPDPReg(AP reg 0x03)
T9E903780 000:575.101   Value=0x00000002
T9E903780 000:575.105 - 0.198ms returns 0
T9E903780 000:575.108 JLINK_CORESIGHT_ReadAPDPReg(AP reg 0x03)
T9E903780 000:575.303   Value=0x00000002
T9E903780 000:575.307 - 0.199ms returns 0
T9E903780 000:575.310 JLINK_CORESIGHT_ReadAPDPReg(AP reg 0x03)
T9E903780 000:575.501   Value=0x00000002
T9E903780 000:575.505 - 0.194ms returns 0
T9E903780 000:575.507 JLINK_CORESIGHT_ReadAPDPReg(AP reg 0x03)
T9E903780 000:575.708   Value=0x00000000
T9E903780 000:575.712 - 0.205ms returns 0
T9E903780 000:575.715 JLINK_CORESIGHT_WriteAPDPReg(AP reg 0x00, 0x80000002)
T9E903780 000:575.879 - 0.165ms returns 0
T9E903780 000:575.882 JLINK_CORESIGHT_WriteAPDPReg(AP reg 0x01, 0x80011130)
T9E903780 000:576.020 - 0.138ms returns 0
T9E903780 000:576.023 JLINK_CORESIGHT_ReadAPDPReg(AP reg 0x03)
T9E903780 000:576.222   Value=0x4F0B0081
T9E903780 000:576.226 - 0.203ms returns 0
T9E903780 000:576.229 JLINK_CORESIGHT_WriteAPDPReg(AP reg 0x00, 0x80000002)
T9E903780 000:576.464 - 0.235ms returns 0
T9E903780 000:576.467 JLINK_CORESIGHT_WriteAPDPReg(AP reg 0x01, 0x80011140)
T9E903780 000:576.636 - 0.169ms returns 0
T9E903780 000:576.639 JLINK_CORESIGHT_ReadAPDPReg(AP reg 0x03)
T9E903780 000:576.839   Value=0x00000000
T9E903780 000:576.843 - 0.204ms returns 0
T9E903780 000:576.846 JLINK_CORESIGHT_WriteAPDPReg(AP reg 0x00, 0x80000002)
T9E903780 000:577.011 - 0.165ms returns 0
T9E903780 000:577.014 JLINK_CORESIGHT_WriteAPDPReg(AP reg 0x01, 0x80011130)
T9E903780 000:577.148 - 0.134ms returns 0
T9E903780 000:577.151 JLINK_CORESIGHT_ReadAPDPReg(AP reg 0x03)
T9E903780 000:577.351   Value=0xA0020000
T9E903780 000:577.355 - 0.204ms returns 0
T9E903780 000:577.358 JLINK_CORESIGHT_WriteAPDPReg(AP reg 0x00, 0x80000002)
T9E903780 000:577.589 - 0.231ms returns 0
T9E903780 000:577.592 JLINK_CORESIGHT_WriteAPDPReg(AP reg 0x01, 0x80011140)
T9E903780 000:577.757 - 0.165ms returns 0
T9E903780 000:577.760 JLINK_CORESIGHT_ReadAPDPReg(AP reg 0x03)
T9E903780 000:577.960   Value=0x00000000
T9E903780 000:577.964 - 0.204ms returns 0
T9E903780 000:577.967 JLINK_CORESIGHT_WriteAPDPReg(AP reg 0x00, 0x80000002)
T9E903780 000:578.133 - 0.167ms returns 0
T9E903780 000:578.136 JLINK_CORESIGHT_WriteAPDPReg(AP reg 0x01, 0x80011130)
T9E903780 000:578.305 - 0.169ms returns 0
T9E903780 000:578.308 JLINK_CORESIGHT_ReadAPDPReg(AP reg 0x03)
T9E903780 000:578.501   Value=0x00000000
T9E903780 000:578.505 - 0.196ms returns 0
T9E903780 000:578.508 JLINK_CORESIGHT_WriteAPDPReg(AP reg 0x00, 0x80000002)
T9E903780 000:578.687 - 0.180ms returns 0
T9E903780 000:578.690 JLINK_CORESIGHT_WriteAPDPReg(AP reg 0x01, 0x80011140)
T9E903780 000:578.861 - 0.171ms returns 0
T9E903780 000:578.864 JLINK_CORESIGHT_ReadAPDPReg(AP reg 0x03)
T9E903780 000:579.064   Value=0x00000000
T9E903780 000:579.070 - 0.206ms returns 0
T9E903780 000:579.073 JLINK_CORESIGHT_WriteAPDPReg(AP reg 0x00, 0x80000002)
T9E903780 000:579.215 - 0.142ms returns 0
T9E903780 000:579.218 JLINK_CORESIGHT_WriteAPDPReg(AP reg 0x01, 0x80011130)
T9E903780 000:579.464 - 0.246ms returns 0
T9E903780 000:579.467 JLINK_CORESIGHT_ReadAPDPReg(AP reg 0x03)
T9E903780 000:579.667   Value=0x03040000
T9E903780 000:579.671 - 0.204ms returns 0
T9E903780 000:579.722 JLINK_CORESIGHT_ReadAPDPReg(DP reg 0x01)
T9E903780 000:579.892   Value=0xF0000F40
T9E903780 000:579.897 - 0.174ms returns 0
T9E903780 000:579.899 JLINK_CORESIGHT_WriteAPDPReg(DP reg 0x01, 0xA0000F40)
T9E903780 000:580.063 - 0.164ms returns 0
T9E903780 000:580.066 JLINK_CORESIGHT_ReadAPDPReg(DP reg 0x01)
T9E903780 000:580.225   Value=0x00000F40
T9E903780 000:580.229 - 0.163ms returns 0
T9E903780 000:580.233 JLINK_ClrRESET()
